(1547073727.670704) slcan0 081#0000000008000000
(1547073727.670732) slcan0 085#00CA053C00000000
(1547073727.670736) slcan0 087#0000000000000000
(1547073727.670742) slcan0 086#0000000000000000
(1547073727.670745) slcan0 084#A034AD3EA034AD3E
(1547073727.670748) slcan0 083#0000000000000000
(1547073727.670751) slcan0 082#FE2B62BD00000000
(1547073727.871726) slcan0 081#0000000008000000
(1547073727.871766) slcan0 085#0074BD3B00000000
(1547073727.871774) slcan0 087#0000000000000000
(1547073727.871780) slcan0 086#0000000000000000
(1547073727.871786) slcan0 084#0046B43E4020E53E
(1547073727.871792) slcan0 083#0000000000000000
(1547073727.871798) slcan0 082#BFE987BD00000000
(1547073728.071722) slcan0 081#0000000008000000
(1547073728.071769) slcan0 085#0068BF3B00000000
(1547073728.071780) slcan0 087#0000000000000000
(1547073728.071788) slcan0 086#0000000000000000
(1547073728.071797) slcan0 084#0000963EA034AD3E
(1547073728.071804) slcan0 083#0000000000000000
(1547073728.071812) slcan0 082#BF3F82BD00000000
(1547073728.271939) slcan0 081#0000000008000000
(1547073728.271990) slcan0 087#0000000000000000
(1547073728.272947) slcan0 08A#0000000000000000
(1547073728.272983) slcan0 08E#AA8AE3BC00000000
(1547073728.272993) slcan0 08B#65E185435026C441
(1547073728.273001) slcan0 089#A79E9B3FBFFA1F40
(1547073728.273010) slcan0 088#ED11D33F23C66B41
(1547073728.273017) slcan0 086#0000000000000000
(1547073728.273025) slcan0 085#00C8AF3B00000000
(1547073728.273033) slcan0 084#A049843E00A7C13E
(1547073728.273040) slcan0 083#0000000000000000
(1547073728.273050) slcan0 082#7F4788BD00000000
(1547073728.273057) slcan0 080#545249617C080000
(1547073728.473384) slcan0 081#0000000008000000
(1547073728.473397) slcan0 085#009CE03B00000000
(1547073728.473398) slcan0 087#0000000000000000
(1547073728.473399) slcan0 086#0000000000000000
(1547073728.473400) slcan0 084#00A7C13E20D5A53E
(1547073728.473401) slcan0 083#0000000000000000
(1547073728.473402) slcan0 082#FE7B5DBD00000000
(1547073728.670936) slcan0 081#0000000008000000
(1547073728.670952) slcan0 085#004CB33B00000000
(1547073728.670954) slcan0 087#0000000000000000
(1547073728.670955) slcan0 086#0000000000000000
(1547073728.670956) slcan0 084#A034AD3E4020E53E
(1547073728.670957) slcan0 083#0000000000000000
(1547073728.670958) slcan0 082#3FAB87BD00000000
(1547073728.873156) slcan0 081#0000000008000000
(1547073728.875134) slcan0 085#0094A73B00000000
(1547073728.875140) slcan0 087#0000000000000000
(1547073728.875141) slcan0 086#0000000000000000
(1547073728.875142) slcan0 084#0046B43EC015BB3E
(1547073728.875143) slcan0 083#0000000000000000
(1547073728.875144) slcan0 082#7FE797BD00000000
(1547073729.073661) slcan0 081#0000000008000000
(1547073729.073688) slcan0 085#0088C23B00000000
(1547073729.073689) slcan0 087#0000000000000000
(1547073729.073690) slcan0 086#0000000000000000
(1547073729.073691) slcan0 084#0046B43E0046B43E
(1547073729.073692) slcan0 083#0000000000000000
(1547073729.073693) slcan0 082#7FD789BD00000000
(1547073729.271754) slcan0 081#0000000008000000
(1547073729.271769) slcan0 087#0000000000000000
(1547073729.271771) slcan0 08A#0000000000000000
(1547073729.271772) slcan0 08E#AA8AE3BC00000000
(1547073729.271774) slcan0 08B#65E18543507EC441
(1547073729.271776) slcan0 089#81979B3FFEF71F40
(1547073729.271777) slcan0 088#210BD33FBDBC6B41
(1547073729.271779) slcan0 086#0000000000000000
(1547073729.271780) slcan0 085#000CC63B00000000
(1547073729.271783) slcan0 084#0046B43E00A7C13E
(1547073729.271784) slcan0 083#0000000000000000
(1547073729.271786) slcan0 082#FF3A88BD00000000
(1547073729.271789) slcan0 080#545249617C080000
(1547073729.471637) slcan0 081#0000000008000000
(1547073729.471653) slcan0 085#0038E03B00000000
(1547073729.471654) slcan0 087#0000000000000000
(1547073729.471657) slcan0 086#0000000000000000
(1547073729.471659) slcan0 084#8085EA3EC015BB3E
(1547073729.471660) slcan0 083#0000000000000000
(1547073729.471661) slcan0 082#FFCB3FBD00000000
(1547073729.671685) slcan0 081#0000000008000000
(1547073729.671698) slcan0 085#0028393C00000000
(1547073729.671700) slcan0 087#0000000000000000
(1547073729.671701) slcan0 086#0000000000000000
(1547073729.671702) slcan0 084#C0F1D93EC0F1D93E
(1547073729.671703) slcan0 083#0000000000000000
(1547073729.671704) slcan0 082#FFCD2EBD00000000
(1547073729.871462) slcan0 081#0000000008000000
(1547073729.871480) slcan0 085#00B2093C00000000
(1547073729.871482) slcan0 087#0000000000000000
(1547073729.871484) slcan0 086#0000000000000000
(1547073729.871485) slcan0 084#20D5A53EA034AD3E
(1547073729.871486) slcan0 083#0000000000000000
(1547073729.871487) slcan0 082#FF3747BD00000000
(1547073730.072215) slcan0 081#0000000008000000
(1547073730.072227) slcan0 085#0000C83B00000000
(1547073730.072228) slcan0 087#0000000000000000
(1547073730.072229) slcan0 086#0000000000000000
(1547073730.072230) slcan0 084#0000C83EC015BB3E
(1547073730.072231) slcan0 083#0000000000000000
(1547073730.072232) slcan0 082#7ECE7BBD00000000
(1547073730.272235) slcan0 081#0000000008000000
(1547073730.272251) slcan0 087#0000000000000000
(1547073730.272253) slcan0 08A#0000000000000000
(1547073730.272255) slcan0 08E#AA8AE3BC00000000
(1547073730.272256) slcan0 08D#AF3B93C1AF3B93C1
(1547073730.272257) slcan0 08C#28E9134250ACDA41
(1547073730.272259) slcan0 08B#65E185435026C441
(1547073730.272260) slcan0 089#A19C9B3FC1FC1F40
(1547073730.272262) slcan0 088#970DD33FFAC16B41
(1547073730.272263) slcan0 086#0000000000000000
(1547073730.272264) slcan0 085#00E0DD3B00000000
(1547073730.272265) slcan0 084#201E9E3E4022D43E
(1547073730.272269) slcan0 083#0000000000000000
(1547073730.272270) slcan0 082#7E007CBD00000000
(1547073730.272271) slcan0 080#545249617C080000
(1547073730.470936) slcan0 081#0000000008000000
(1547073730.470948) slcan0 087#0000000000000000
(1547073730.470949) slcan0 086#0000000000000000
(1547073730.470950) slcan0 085#0090C93B00000000
(1547073730.470951) slcan0 084#0000C83EC0F1D93E
(1547073730.470952) slcan0 083#0000000000000000
(1547073730.470953) slcan0 082#FE8175BD00000000
(1547073730.673015) slcan0 081#0000000008000000
(1547073730.673036) slcan0 085#00E4BB3B00000000
(1547073730.673037) slcan0 087#0000000000000000
(1547073730.673039) slcan0 086#0000000000000000
(1547073730.673040) slcan0 084#0046B43E4022D43E
(1547073730.673041) slcan0 083#0000000000000000
(1547073730.673043) slcan0 082#FF6B84BD00000000
(1547073730.871090) slcan0 081#0000000008000000
(1547073730.871101) slcan0 085#0080BB3B00000000
(1547073730.871102) slcan0 087#0000000000000000
(1547073730.871103) slcan0 086#0000000000000000
(1547073730.871104) slcan0 084#0046B43E4020E53E
(1547073730.871105) slcan0 083#0000000000000000
(1547073730.871107) slcan0 082#FF3A88BD00000000
(1547073731.072083) slcan0 081#0000000008000000
(1547073731.072095) slcan0 086#0000000000000000
(1547073731.072096) slcan0 087#0000000000000000
(1547073731.072098) slcan0 085#0048BC3B00000000
(1547073731.072099) slcan0 084#A034AD3EC0F1D93E
(1547073731.072102) slcan0 083#0000000000000000
(1547073731.072103) slcan0 082#7F7389BD00000000
(1547073731.272158) slcan0 081#0000000008000000
(1547073731.272170) slcan0 085#0088C23B00000000
(1547073731.273121) slcan0 08A#0000000000000000
(1547073731.273137) slcan0 08E#AA8AE3BC00000000
(1547073731.273138) slcan0 08B#65E18543507EC441
(1547073731.273139) slcan0 089#EA9E9B3F39FD1F40
(1547073731.273140) slcan0 088#9912D33F71C56B41
(1547073731.273141) slcan0 087#0000000000000000
(1547073731.273143) slcan0 086#0000000000000000
(1547073731.273144) slcan0 084#0046B43E4020E53E
(1547073731.273145) slcan0 083#0000000000000000
(1547073731.273146) slcan0 082#FE0579BD00000000
(1547073731.273147) slcan0 080#545249617C080000
(1547073731.470455) slcan0 081#0000000008000000
(1547073731.470484) slcan0 085#00C0C13B00000000
(1547073731.470489) slcan0 087#0000000000000000
(1547073731.470492) slcan0 086#0000000000000000
(1547073731.470496) slcan0 084#0000FA3EC09BDF3E
(1547073731.470500) slcan0 083#0000000000000000
(1547073731.470504) slcan0 082#7EB549BD00000000
(1547073731.671753) slcan0 081#0000000008000000
(1547073731.671794) slcan0 085#002CC93B00000000
(1547073731.671802) slcan0 087#0000000000000000
(1547073731.671808) slcan0 086#0000000000000000
(1547073731.671815) slcan0 084#4020E53E0000C83E
(1547073731.671820) slcan0 083#0000000000000000
(1547073731.671826) slcan0 082#7ED95CBD00000000
(1547073731.873859) slcan0 081#0000000008000000
(1547073731.873878) slcan0 086#0000000000000000
(1547073731.873881) slcan0 087#0000000000000000
(1547073731.873883) slcan0 085#00EC423C00000000
(1547073731.873885) slcan0 084#0046B43E0000C83E
(1547073731.873887) slcan0 083#0000000000000000
(1547073731.873889) slcan0 082#7F1404BD00000000
(1547073732.073070) slcan0 081#0000000008000000
(1547073732.073117) slcan0 085#005C0F3C00000000
(1547073732.073927) slcan0 087#0000000000000000
(1547073732.073938) slcan0 086#0000000000000000
(1547073732.073947) slcan0 084#0000C83E0027CE3E
(1547073732.073955) slcan0 083#0000000000000000
(1547073732.073975) slcan0 082#7E0E50BD00000000
(1547073732.272425) slcan0 081#0000000008000000
(1547073732.272445) slcan0 087#0000000000000000
(1547073732.274147) slcan0 08A#0000000000000000
(1547073732.274167) slcan0 08E#AA8AE3BC00000000
(1547073732.274171) slcan0 08B#65E185435026C441
(1547073732.274174) slcan0 089#BEA59B3F02032040
(1547073732.274177) slcan0 088#CF18D33F6FC86B41
(1547073732.274180) slcan0 086#0000000000000000
(1547073732.274184) slcan0 085#0028203C00000000
(1547073732.276073) slcan0 084#A034AD3EC015BB3E
(1547073732.276087) slcan0 083#0000000000000000
(1547073732.276090) slcan0 082#7F5833BD00000000
(1547073732.276092) slcan0 080#545249617C080000
(1547073732.472572) slcan0 081#0000000008000000
(1547073732.472589) slcan0 085#00C6403C00000000
(1547073732.472591) slcan0 087#0000000000000000
(1547073732.472593) slcan0 086#0000000000000000
(1547073732.472595) slcan0 084#A034AD3E0000963E
(1547073732.472596) slcan0 083#0000000000000000
(1547073732.472598) slcan0 082#FFCE19BD00000000
(1547073732.672175) slcan0 081#0000000008000000
(1547073732.672241) slcan0 085#00DC343C00000000
(1547073732.672248) slcan0 087#0000000000000000
(1547073732.672254) slcan0 086#0000000000000000
(1547073732.672260) slcan0 084#A034AD3EC0F1D93E
(1547073732.672266) slcan0 083#0000000000000000
(1547073732.672909) slcan0 082#7FA22FBD00000000
(1547073732.872644) slcan0 081#0000000008000000
(1547073732.872665) slcan0 085#004E093C00000000
(1547073732.872669) slcan0 087#0000000000000000
(1547073732.872674) slcan0 086#0000000000000000
(1547073732.872676) slcan0 084#4022D43E0046B43E
(1547073732.872678) slcan0 083#0000000000000000
(1547073732.872681) slcan0 082#FE834BBD00000000
(1547073733.071637) slcan0 081#0000000008000000
(1547073733.071717) slcan0 085#00C0DA3B00000000
(1547073733.071720) slcan0 087#0000000000000000
(1547073733.071722) slcan0 086#0000000000000000
(1547073733.071724) slcan0 084#A034AD3EC0F1D93E
(1547073733.071726) slcan0 083#0000000000000000
(1547073733.071727) slcan0 082#FF752CBD00000000
(1547073733.273336) slcan0 081#0000000008000000
(1547073733.273355) slcan0 087#0000000000000000
(1547073733.275164) slcan0 08A#0000000000000000
(1547073733.275193) slcan0 08E#AA8AE3BC00000000
(1547073733.275198) slcan0 08B#65E185435026C441
(1547073733.275202) slcan0 089#B2A99B3F3C012040
(1547073733.275205) slcan0 088#351CD33F6BCA6B41
(1547073733.275208) slcan0 086#0000000000000000
(1547073733.275210) slcan0 085#00DA133C00000000
(1547073733.275212) slcan0 084#C015BB3E80CBEF3E
(1547073733.275214) slcan0 083#0000000000000000
(1547073733.275216) slcan0 082#FF4F2ABD00000000
(1547073733.275219) slcan0 080#545249617C080000
(1547073733.474488) slcan0 081#0000000008000000
(1547073733.474530) slcan0 085#00EA213C00000000
(1547073733.474537) slcan0 087#0000000000000000
(1547073733.474543) slcan0 086#0000000000000000
(1547073733.474549) slcan0 084#C015BB3E20D5A53E
(1547073733.474555) slcan0 083#0000000000000000
(1547073733.474561) slcan0 082#7F1E13BD00000000
(1547073733.670895) slcan0 081#0000000008000000
(1547073733.670921) slcan0 085#0010EF3B00000000
(1547073733.670926) slcan0 087#0000000000000000
(1547073733.670931) slcan0 086#0000000000000000
(1547073733.670936) slcan0 084#0000C83E4020E53E
(1547073733.670941) slcan0 083#0000000000000000
(1547073733.670951) slcan0 082#7EB04EBD00000000
(1547073733.873933) slcan0 081#0000000008000000
(1547073733.873949) slcan0 085#008CEB3B00000000
(1547073733.873951) slcan0 087#0000000000000000
(1547073733.873953) slcan0 086#0000000000000000
(1547073733.873955) slcan0 084#00A7C13EA034AD3E
(1547073733.873957) slcan0 083#0000000000000000
(1547073733.873959) slcan0 082#7F293FBD00000000
(1547073734.073184) slcan0 081#0000000008000000
(1547073734.073219) slcan0 086#0000000000000000
(1547073734.073224) slcan0 087#0000000000000000
(1547073734.073229) slcan0 085#0098373C00000000
(1547073734.073236) slcan0 084#20D5A53EA034AD3E
(1547073734.073240) slcan0 083#0000000000000000
(1547073734.073245) slcan0 082#7F8538BD00000000
(1547073734.272968) slcan0 081#0000000008000000
(1547073734.272983) slcan0 087#0000000000000000
(1547073734.273966) slcan0 08A#0000000000000000
(1547073734.273977) slcan0 08E#AA8AE3BC00000000
(1547073734.273979) slcan0 08B#059983435026C441
(1547073734.273981) slcan0 089#08A79B3F3E032040
(1547073734.273983) slcan0 088#5D1AD33FF9CC6B41
(1547073734.273984) slcan0 086#0000000000000000
(1547073734.273986) slcan0 085#0000E13B00000000
(1547073734.273988) slcan0 084#C09BDF3E0027CE3E
(1547073734.273989) slcan0 083#0000000000000000
(1547073734.273991) slcan0 082#7E226EBD00000000
(1547073734.273993) slcan0 080#545249617C080000
(1547073734.473493) slcan0 081#0000000008000000
(1547073734.473522) slcan0 085#0084CB3B00000000
(1547073734.473527) slcan0 087#0000000000000000
(1547073734.473530) slcan0 086#0000000000000000
(1547073734.473534) slcan0 084#0046B43EA034AD3E
(1547073734.473538) slcan0 083#0000000000000000
(1547073734.473542) slcan0 082#FF0081BD00000000
(1547073734.674425) slcan0 081#0000000008000000
(1547073734.674453) slcan0 085#0060B83B00000000
(1547073734.674458) slcan0 087#0000000000000000
(1547073734.674461) slcan0 086#0000000000000000
(1547073734.674465) slcan0 084#C09BDF3E0027CE3E
(1547073734.674468) slcan0 083#0000000000000000
(1547073734.674471) slcan0 082#7FF480BD00000000
(1547073734.874464) slcan0 081#0000000008000000
(1547073734.874520) slcan0 085#007CC43B00000000
(1547073734.876558) slcan0 087#0000000000000000
(1547073734.876601) slcan0 086#0000000000000000
(1547073734.876612) slcan0 084#A034AD3EC015BB3E
(1547073734.876620) slcan0 083#0000000000000000
(1547073734.876628) slcan0 082#7F4788BD00000000
(1547073735.074633) slcan0 081#0000000008000000
(1547073735.074648) slcan0 085#00DCCD3B00000000
(1547073735.074650) slcan0 087#0000000000000000
(1547073735.074652) slcan0 086#0000000000000000
(1547073735.074653) slcan0 084#A034AD3E8085EA3E
(1547073735.074655) slcan0 083#0000000000000000
(1547073735.074656) slcan0 082#7F8482BD00000000
(1547073735.273371) slcan0 081#0000000008000000
(1547073735.273387) slcan0 086#0000000000000000
(1547073735.273389) slcan0 08A#0000000000000000
(1547073735.273391) slcan0 08E#AA8AE3BC00000000
(1547073735.273393) slcan0 08D#AF3B93C1AF3B93C1
(1547073735.273395) slcan0 08C#28E9134250ACDA41
(1547073735.273396) slcan0 08B#65E185435026C441
(1547073735.273398) slcan0 089#AAA29B3F25FE1F40
(1547073735.273400) slcan0 088#B217D33FC5CA6B41
(1547073735.273402) slcan0 087#0000000000000000
(1547073735.273403) slcan0 085#0020E43B00000000
(1547073735.273405) slcan0 084#C015BB3EC09BDF3E
(1547073735.273407) slcan0 083#0000000000000000
(1547073735.273410) slcan0 082#FE9D68BD00000000
(1547073735.273412) slcan0 080#545249617C080000
(1547073735.473017) slcan0 081#0000000008000000
(1547073735.473033) slcan0 085#0028EB3B00000000
(1547073735.474257) slcan0 087#0000000000000000
(1547073735.474269) slcan0 086#0000000000000000
(1547073735.474270) slcan0 084#C015BB3E0027CE3E
(1547073735.474271) slcan0 083#0000000000000000
(1547073735.474272) slcan0 082#FE0169BD00000000
(1547073735.673353) slcan0 081#0000000008000000
(1547073735.673371) slcan0 085#00ACBC3B00000000
(1547073735.673373) slcan0 087#0000000000000000
(1547073735.673375) slcan0 086#0000000000000000
(1547073735.673377) slcan0 084#C0F1D93EA034AD3E
(1547073735.673379) slcan0 083#0000000000000000
(1547073735.673380) slcan0 082#3F6087BD00000000
(1547073735.873505) slcan0 081#0000000008000000
(1547073735.873531) slcan0 085#00B4C33B00000000
(1547073735.874579) slcan0 087#0000000000000000
(1547073735.874603) slcan0 086#0000000000000000
(1547073735.874608) slcan0 084#4020E53E8085EA3E
(1547073735.874614) slcan0 083#0000000000000000
(1547073735.874617) slcan0 082#BF4392BD00000000
(1547073736.073328) slcan0 081#0000000008000000
(1547073736.073433) slcan0 087#0000000000000000
(1547073736.073436) slcan0 086#0000000000000000
(1547073736.073438) slcan0 085#0064C83B00000000
(1547073736.073439) slcan0 084#0000C83E0027CE3E
(1547073736.073440) slcan0 083#0000000000000000
(1547073736.073442) slcan0 082#BF6890BD00000000
(1547073736.274961) slcan0 081#0000000008000000
(1547073736.274988) slcan0 087#0000000000000000
(1547073736.274990) slcan0 08A#0000000000000000
(1547073736.274996) slcan0 08E#AA8AE3BC00000000
(1547073736.274998) slcan0 08B#65E18543507EC441
(1547073736.275000) slcan0 089#8F9F9B3F49FF1F40
(1547073736.275001) slcan0 088#EE17D33F08C16B41
(1547073736.275003) slcan0 086#0000000000000000
(1547073736.275005) slcan0 085#0010BD3B00000000
(1547073736.275007) slcan0 084#20D5A53E0027CE3E
(1547073736.275015) slcan0 083#0000000000000000
(1547073736.275018) slcan0 082#7EB959BD00000000
(1547073736.275020) slcan0 080#545249617C080000
(1547073736.474047) slcan0 081#0000000008000000
(1547073736.474065) slcan0 085#0044DE3B00000000
(1547073736.475897) slcan0 087#0000000000000000
(1547073736.475911) slcan0 086#0000000000000000
(1547073736.475913) slcan0 084#4022D43E40F2F43E
(1547073736.475915) slcan0 083#0000000000000000
(1547073736.475916) slcan0 082#7EFD56BD00000000
(1547073736.674196) slcan0 081#0000000008000000
(1547073736.674214) slcan0 085#00B8083C00000000
(1547073736.676191) slcan0 087#0000000000000000
(1547073736.676206) slcan0 086#0000000000000000
(1547073736.676207) slcan0 084#00A7C13EA034AD3E
(1547073736.676209) slcan0 083#0000000000000000
(1547073736.676210) slcan0 082#FE264EBD00000000
(1547073736.873638) slcan0 081#0000000008000000
(1547073736.873664) slcan0 085#0018C43B00000000
(1547073736.874850) slcan0 087#0000000000000000
(1547073736.874882) slcan0 086#0000000000000000
(1547073736.874889) slcan0 084#0046B43E20D5A53E
(1547073736.874894) slcan0 083#0000000000000000
(1547073736.874898) slcan0 082#FE416FBD00000000
(1547073737.074222) slcan0 081#0000000008000000
(1547073737.074514) slcan0 087#0000000000000000
(1547073737.074537) slcan0 086#0000000000000000
(1547073737.074546) slcan0 085#00BCFC3B00000000
(1547073737.074554) slcan0 084#0000C83E4020E53E
(1547073737.074563) slcan0 083#0000000000000000
(1547073737.074570) slcan0 082#7F0A40BD00000000
(1547073737.273846) slcan0 081#0000000008000000
(1547073737.273866) slcan0 087#0000000000000000
(1547073737.273869) slcan0 08A#0000000000000000
(1547073737.273871) slcan0 08E#AA8AE3BC00000000
(1547073737.273873) slcan0 08B#65E185435026C441
(1547073737.273878) slcan0 089#EFA89B3F0C002040
(1547073737.273881) slcan0 088#BE1AD33F02CE6B41
(1547073737.273883) slcan0 086#0000000000000000
(1547073737.273885) slcan0 085#001A013C00000000
(1547073737.273888) slcan0 084#0000FA3E4022D43E
(1547073737.273890) slcan0 083#0000000000000000
(1547073737.273891) slcan0 082#7F2138BD00000000
(1547073737.273893) slcan0 080#545249617C080000
(1547073737.473883) slcan0 081#0000000008000000
(1547073737.473900) slcan0 085#0018C43B00000000
(1547073737.473902) slcan0 087#0000000000000000
(1547073737.473905) slcan0 086#0000000000000000
(1547073737.473907) slcan0 084#20D5A53E00A7C13E
(1547073737.473909) slcan0 083#0000000000000000
(1547073737.473911) slcan0 082#7F9B2CBD00000000
(1547073737.674036) slcan0 081#0000000008000000
(1547073737.674050) slcan0 085#006CB63B00000000
(1547073737.675957) slcan0 087#0000000000000000
(1547073737.675972) slcan0 086#0000000000000000
(1547073737.675974) slcan0 084#C015BB3E0000C83E
(1547073737.675975) slcan0 083#0000000000000000
(1547073737.675977) slcan0 082#7E5E7DBD00000000
(1547073737.875357) slcan0 081#0000000008000000
(1547073737.875373) slcan0 085#009CC73B00000000
(1547073737.875375) slcan0 087#0000000000000000
(1547073737.875377) slcan0 086#0000000000000000
(1547073737.875379) slcan0 084#C0F1D93EA034AD3E
(1547073737.875381) slcan0 083#0000000000000000
(1547073737.875383) slcan0 082#7E7A57BD00000000
(1547073738.077430) slcan0 081#0000000008000000
(1547073738.077448) slcan0 086#0000000000000000
(1547073738.077451) slcan0 087#0000000000000000
(1547073738.077453) slcan0 085#007C443C00000000
(1547073738.077454) slcan0 084#0027CE3E4022D43E
(1547073738.077456) slcan0 083#0000000000000000
(1547073738.077458) slcan0 082#FF0600BD00000000
(1547073738.274865) slcan0 081#0000000008000000
(1547073738.275931) slcan0 087#0000000000000000
(1547073738.275944) slcan0 08A#0000000000000000
(1547073738.275947) slcan0 08E#AA8AE3BC00000000
(1547073738.275949) slcan0 08B#65E185435026C441
(1547073738.275951) slcan0 089#57B29B3F6C092040
(1547073738.275952) slcan0 088#5A24D33F86D56B41
(1547073738.275954) slcan0 086#0000000000000000
(1547073738.275956) slcan0 085#008A183C00000000
(1547073738.275957) slcan0 084#0000963E4022D43E
(1547073738.275959) slcan0 083#0000000000000000
(1547073738.275961) slcan0 082#7F4636BD00000000
(1547073738.275962) slcan0 080#545249617C080000
(1547073738.473817) slcan0 081#0000000008000000
(1547073738.473836) slcan0 086#0000000000000000
(1547073738.475048) slcan0 087#0000000000000000
(1547073738.475063) slcan0 085#004CFE3B00000000
(1547073738.475065) slcan0 084#0046B43E8085EA3E
(1547073738.475067) slcan0 083#0000000000000000
(1547073738.475068) slcan0 082#FEEB5BBD00000000
(1547073738.674325) slcan0 081#0000000008000000
(1547073738.674357) slcan0 085#00FC053C00000000
(1547073738.674363) slcan0 087#0000000000000000
(1547073738.674366) slcan0 086#0000000000000000
(1547073738.674369) slcan0 084#4022D43EC09BDF3E
(1547073738.674371) slcan0 083#0000000000000000
(1547073738.674374) slcan0 082#FF0F3DBD00000000
(1547073738.874127) slcan0 081#0000000008000000
(1547073738.874146) slcan0 087#0000000000000000
(1547073738.874148) slcan0 086#0000000000000000
(1547073738.874150) slcan0 085#00721C3C00000000
(1547073738.874152) slcan0 084#0000963EC015BB3E
(1547073738.874154) slcan0 083#0000000000000000
(1547073738.874155) slcan0 082#7FB634BD00000000
(1547073739.076696) slcan0 081#0000000008000000
(1547073739.078392) slcan0 087#0000000000000000
(1547073739.078413) slcan0 086#0000000000000000
(1547073739.078417) slcan0 085#00E2333C00000000
(1547073739.078421) slcan0 084#8085EA3E0000C83E
(1547073739.078424) slcan0 083#0000000000000000
(1547073739.078427) slcan0 082#7ED54CBD00000000
(1547073739.274809) slcan0 081#0000000008000000
(1547073739.274854) slcan0 087#0000000000000000
(1547073739.274865) slcan0 08A#0000000000000000
(1547073739.274879) slcan0 08E#AA8AE3BC00000000
(1547073739.274890) slcan0 08B#65E185435026C441
(1547073739.274903) slcan0 089#30AC9B3FFE022040
(1547073739.274913) slcan0 088#491FD33FCFCF6B41
(1547073739.274921) slcan0 086#0000000000000000
(1547073739.274929) slcan0 085#0058313C00000000
(1547073739.274937) slcan0 084#C015BB3E00A7C13E
(1547073739.274945) slcan0 083#0000000000000000
(1547073739.274953) slcan0 082#FF7428BD00000000
(1547073739.274961) slcan0 080#545249617C080000
(1547073739.474684) slcan0 081#0000000008000000
(1547073739.474701) slcan0 085#0094F23B00000000
(1547073739.476655) slcan0 087#0000000000000000
(1547073739.476669) slcan0 086#0000000000000000
(1547073739.476671) slcan0 084#201E9E3E20D5A53E
(1547073739.476674) slcan0 083#0000000000000000
(1547073739.476675) slcan0 082#FE904DBD00000000
(1547073739.675828) slcan0 081#0000000008000000
(1547073739.675842) slcan0 085#0034053C00000000
(1547073739.675844) slcan0 087#0000000000000000
(1547073739.675846) slcan0 086#0000000000000000
(1547073739.675847) slcan0 084#0027CE3E0000C83E
(1547073739.675849) slcan0 083#0000000000000000
(1547073739.675850) slcan0 082#7EB152BD00000000
(1547073739.875669) slcan0 081#0000000008000000
(1547073739.875683) slcan0 087#0000000000000000
(1547073739.875685) slcan0 086#0000000000000000
(1547073739.875686) slcan0 085#0066053C00000000
(1547073739.875688) slcan0 084#00A7C13E4020E53E
(1547073739.875689) slcan0 083#0000000000000000
(1547073739.875692) slcan0 082#FF353FBD00000000
(1547073740.076120) slcan0 081#0000000008000000
(1547073740.076141) slcan0 085#009CF93B00000000
(1547073740.076149) slcan0 087#0000000000000000
(1547073740.076152) slcan0 086#0000000000000000
(1547073740.076155) slcan0 084#C09BDF3E20D5A53E
(1547073740.076157) slcan0 083#0000000000000000
(1547073740.076160) slcan0 082#7E2548BD00000000
(1547073740.275448) slcan0 081#0000000008000000
(1547073740.275463) slcan0 087#0000000000000000
(1547073740.275465) slcan0 08A#0000000000000000
(1547073740.275466) slcan0 08E#AA8AE3BC00000000
(1547073740.275468) slcan0 08D#AF3B93C1AF3B93C1
(1547073740.275469) slcan0 08C#28E913425054DA41
(1547073740.275470) slcan0 08B#059983435026C441
(1547073740.275471) slcan0 089#5EAB9B3F5F072040
(1547073740.275473) slcan0 088#0321D33FE8CE6B41
(1547073740.275474) slcan0 086#0000000000000000
(1547073740.275475) slcan0 085#0076133C00000000
(1547073740.275476) slcan0 084#0027CE3E40F2F43E
(1547073740.275477) slcan0 083#0000000000000000
(1547073740.275481) slcan0 082#FF353FBD00000000
(1547073740.275483) slcan0 080#545249617C080000
(1547073740.475378) slcan0 081#0000000008000000
(1547073740.475392) slcan0 087#0000000000000000
(1547073740.475393) slcan0 086#0000000000000000
(1547073740.475395) slcan0 085#00F2283C00000000
(1547073740.475396) slcan0 084#C015BB3E201E9E3E
(1547073740.475397) slcan0 083#0000000000000000
(1547073740.475398) slcan0 082#FE4B4CBD00000000
(1547073740.674469) slcan0 081#0000000008000000
(1547073740.674484) slcan0 085#00B64B3C00000000
(1547073740.675580) slcan0 087#0000000000000000
(1547073740.675594) slcan0 086#0000000000000000
(1547073740.675596) slcan0 084#8085EA3E4022D43E
(1547073740.675597) slcan0 083#0000000000000000
(1547073740.675599) slcan0 082#7FC304BD00000000
(1547073740.875088) slcan0 081#0000000008000000
(1547073740.875103) slcan0 085#007E333C00000000
(1547073740.875566) slcan0 087#0000000000000000
(1547073740.875578) slcan0 086#0000000000000000
(1547073740.875581) slcan0 084#00A7C13E4022D43E
(1547073740.875582) slcan0 083#0000000000000000
(1547073740.875584) slcan0 082#FF8B39BD00000000
(1547073741.074781) slcan0 081#0000000008000000
(1547073741.074803) slcan0 085#0014CD3B00000000
(1547073741.074805) slcan0 087#0000000000000000
(1547073741.074806) slcan0 086#0000000000000000
(1547073741.074808) slcan0 084#0046B43EC015BB3E
(1547073741.074809) slcan0 083#0000000000000000
(1547073741.074810) slcan0 082#7E1279BD00000000
(1547073741.274671) slcan0 081#0000000008000000
(1547073741.274686) slcan0 085#000CDF3B00000000
(1547073741.274687) slcan0 08A#0000000000000000
(1547073741.274689) slcan0 08E#AA8AE3BC00000000
(1547073741.274690) slcan0 08B#65E185435026C441
(1547073741.274692) slcan0 089#BAA19B3F77FE1F40
(1547073741.274693) slcan0 088#DD12D33F55C66B41
(1547073741.274694) slcan0 087#0000000000000000
(1547073741.274696) slcan0 086#0000000000000000
(1547073741.274698) slcan0 084#0000C83E20D5A53E
(1547073741.274699) slcan0 083#0000000000000000
(1547073741.274700) slcan0 082#7E4870BD00000000
(1547073741.274702) slcan0 080#545249617C080000
(1547073741.476695) slcan0 081#0000000008000000
(1547073741.476736) slcan0 085#00A00C3C00000000
(1547073741.476739) slcan0 087#0000000000000000
(1547073741.476744) slcan0 086#0000000000000000
(1547073741.476746) slcan0 084#C0F1D93E20D5A53E
(1547073741.476748) slcan0 083#0000000000000000
(1547073741.476750) slcan0 082#FF4B33BD00000000
(1547073741.675634) slcan0 081#0000000008000000
(1547073741.675665) slcan0 087#0000000000000000
(1547073741.675676) slcan0 086#0000000000000000
(1547073741.675681) slcan0 085#00D42D3C00000000
(1547073741.675686) slcan0 084#0000C83EC0F1D93E
(1547073741.675691) slcan0 083#0000000000000000
(1547073741.675695) slcan0 082#7FF10DBD00000000
(1547073741.874930) slcan0 081#0000000008000000
(1547073741.876470) slcan0 085#00DE3C3C00000000
(1547073741.876513) slcan0 087#0000000000000000
(1547073741.876523) slcan0 086#0000000000000000
(1547073741.876532) slcan0 084#0046B43E00A7C13E
(1547073741.876540) slcan0 083#0000000000000000
(1547073741.876548) slcan0 082#FEF1F3BC00000000
(1547073742.074852) slcan0 081#0000000008000000
(1547073742.075935) slcan0 085#00163C3C00000000
(1547073742.075950) slcan0 087#0000000000000000
(1547073742.075953) slcan0 086#0000000000000000
(1547073742.075956) slcan0 084#C015BB3EC09BDF3E
(1547073742.075958) slcan0 083#0000000000000000
(1547073742.075961) slcan0 082#FEEAF0BC00000000
(1547073742.275562) slcan0 081#0000000008000000
(1547073742.275613) slcan0 085#00FA2F3C00000000
(1547073742.275624) slcan0 08A#0000000000000000
(1547073742.275632) slcan0 08E#AA8AE3BC00000000
(1547073742.275640) slcan0 08B#65E185435026C441
(1547073742.275648) slcan0 089#58B19B3F33032040
(1547073742.275655) slcan0 088#D925D33F41DA6B41
(1547073742.276067) slcan0 087#0000000000000000
(1547073742.276106) slcan0 086#0000000000000000
(1547073742.276115) slcan0 084#A034AD3E20D5A53E
(1547073742.276123) slcan0 083#0000000000000000
(1547073742.276130) slcan0 082#FF131BBD00000000
(1547073742.276138) slcan0 080#545249617C080000
(1547073742.475071) slcan0 081#0000000008000000
(1547073742.476195) slcan0 085#000C2D3C00000000
(1547073742.476211) slcan0 087#0000000000000000
(1547073742.476213) slcan0 086#0000000000000000
(1547073742.476216) slcan0 084#40F2F43E40F2743E
(1547073742.476218) slcan0 083#0000000000000000
(1547073742.476219) slcan0 082#FFE732BD00000000
(1547073742.675622) slcan0 081#0000000008000000
(1547073742.675664) slcan0 085#004E543C00000000
(1547073742.675671) slcan0 087#0000000000000000
(1547073742.675677) slcan0 086#0000000000000000
(1547073742.675685) slcan0 084#4022D43E0046B43E
(1547073742.675691) slcan0 083#0000000000000000
(1547073742.675697) slcan0 082#FFFD0DBD00000000
(1547073742.874482) slcan0 081#0000000008000000
(1547073742.876840) slcan0 085#0030403C00000000
(1547073742.876855) slcan0 087#0000000000000000
(1547073742.876856) slcan0 086#0000000000000000
(1547073742.876858) slcan0 084#C015BB3EA034AD3E
(1547073742.876859) slcan0 083#0000000000000000
(1547073742.876861) slcan0 082#FEBADFBC00000000
(1547073743.074631) slcan0 081#0000000008000000
(1547073743.075693) slcan0 086#0000000000000000
(1547073743.075711) slcan0 087#0000000000000000
(1547073743.075713) slcan0 085#008A183C00000000
(1547073743.075714) slcan0 084#4020E53E00A7C13E
(1547073743.075715) slcan0 083#0000000000000000
(1547073743.075717) slcan0 082#FF6843BD00000000
(1547073743.276932) slcan0 081#0000000008000000
(1547073743.278646) slcan0 085#009CE03B00000000
(1547073743.278658) slcan0 08A#0000000000000000
(1547073743.278659) slcan0 08E#AA8AE3BC00000000
(1547073743.278660) slcan0 08B#65E185435026C441
(1547073743.278661) slcan0 089#13AB9B3F8E022040
(1547073743.278662) slcan0 088#2B1FD33F3ED36B41
(1547073743.278663) slcan0 087#0000000000000000
(1547073743.278664) slcan0 086#0000000000000000
(1547073743.278665) slcan0 084#80CBEF3E4022D43E
(1547073743.278666) slcan0 083#0000000000000000
(1547073743.278667) slcan0 082#FEE048BD00000000
(1547073743.278668) slcan0 080#545249617C080000
(1547073743.475954) slcan0 081#0000000008000000
(1547073743.476002) slcan0 085#00BCE33B00000000
(1547073743.476012) slcan0 087#0000000000000000
(1547073743.476020) slcan0 086#0000000000000000
(1547073743.476028) slcan0 084#4022D43E4022D43E
(1547073743.476035) slcan0 083#0000000000000000
(1547073743.476043) slcan0 082#7F7C46BD00000000
(1547073743.675227) slcan0 081#0000000008000000
(1547073743.676339) slcan0 085#00C4EA3B00000000
(1547073743.676352) slcan0 087#0000000000000000
(1547073743.676354) slcan0 086#0000000000000000
(1547073743.676355) slcan0 084#8085EA3EA034AD3E
(1547073743.676356) slcan0 083#0000000000000000
(1547073743.676357) slcan0 082#FFF41BBD00000000
(1547073743.875388) slcan0 081#0000000008000000
(1547073743.875406) slcan0 085#00FA483C00000000
(1547073743.875408) slcan0 087#0000000000000000
(1547073743.875409) slcan0 086#0000000000000000
(1547073743.875411) slcan0 084#0000C83E0000C83E
(1547073743.875413) slcan0 083#0000000000000000
(1547073743.875415) slcan0 082#FF6505BD00000000
(1547073744.075639) slcan0 081#0000000008000000
(1547073744.076608) slcan0 087#0000000000000000
(1547073744.076628) slcan0 086#0000000000000000
(1547073744.076632) slcan0 085#00CC3F3C00000000
(1547073744.076634) slcan0 084#00A7C13EC09BDF3E
(1547073744.076636) slcan0 083#0000000000000000
(1547073744.076639) slcan0 082#FEA6DABC00000000
(1547073744.275794) slcan0 081#0000000008000000
(1547073744.276787) slcan0 085#00A44E3C00000000
(1547073744.276805) slcan0 08A#0000000000000000
(1547073744.276809) slcan0 08E#AA8AE3BC00000000
(1547073744.276812) slcan0 08B#65E185435026C441
(1547073744.276815) slcan0 089#F0B69B3F0A0A2040
(1547073744.276818) slcan0 088#222FD33FD6DE6B41
(1547073744.276821) slcan0 087#0000000000000000
(1547073744.276824) slcan0 086#0000000000000000
(1547073744.276827) slcan0 084#201E9E3EC09BDF3E
(1547073744.276830) slcan0 083#0000000000000000
(1547073744.276832) slcan0 082#FE02D4BC00000000
(1547073744.276835) slcan0 080#545249617C080000
(1547073744.478012) slcan0 081#0000000008000000
(1547073744.478063) slcan0 085#00F6513C00000000
(1547073744.478075) slcan0 087#0000000000000000
(1547073744.478084) slcan0 086#0000000000000000
(1547073744.478096) slcan0 084#A034AD3E40F2F43E
(1547073744.478105) slcan0 083#0000000000000000
(1547073744.478113) slcan0 082#7FA00EBD00000000
(1547073744.676109) slcan0 081#0000000008000000
(1547073744.678015) slcan0 085#003A1D3C00000000
(1547073744.678034) slcan0 087#0000000000000000
(1547073744.678037) slcan0 086#0000000000000000
(1547073744.678038) slcan0 084#0000C83E0027CE3E
(1547073744.678040) slcan0 083#0000000000000000
(1547073744.678041) slcan0 082#7F201BBD00000000
(1547073744.876218) slcan0 081#0000000008000000
(1547073744.878348) slcan0 085#0064C83B00000000
(1547073744.878356) slcan0 087#0000000000000000
(1547073744.878358) slcan0 086#0000000000000000
(1547073744.878359) slcan0 084#0046B43E4022D43E
(1547073744.878360) slcan0 083#0000000000000000
(1547073744.878362) slcan0 082#7E695EBD00000000
(1547073745.075714) slcan0 081#0000000008000000
(1547073745.075727) slcan0 085#0070463C00000000
(1547073745.075728) slcan0 087#0000000000000000
(1547073745.075730) slcan0 086#0000000000000000
(1547073745.075731) slcan0 084#C09BDF3E0000C83E
(1547073745.075732) slcan0 083#0000000000000000
(1547073745.075733) slcan0 082#FE54D7BC00000000
(1547073745.274947) slcan0 081#0000000008000000
(1547073745.274959) slcan0 086#0000000000000000
(1547073745.274960) slcan0 08A#0000000000000000
(1547073745.274961) slcan0 08E#AA8AE3BC00000000
(1547073745.274964) slcan0 08D#AF3B93C1AF3B93C1
(1547073745.274965) slcan0 08C#28E913425054DA41
(1547073745.274966) slcan0 08B#65E185435026C441
(1547073745.274967) slcan0 089#CCB59B3FF1082040
(1547073745.274968) slcan0 088#682DD33F4ADC6B41
(1547073745.274969) slcan0 087#0000000000000000
(1547073745.274970) slcan0 085#00CC3F3C00000000
(1547073745.274971) slcan0 084#201E9E3E80CBEF3E
(1547073745.274972) slcan0 083#0000000000000000
(1547073745.274975) slcan0 082#FE97D0BC00000000
(1547073745.274976) slcan0 080#545249617C080000
(1547073745.476814) slcan0 081#0000000008000000
(1547073745.476835) slcan0 085#00A82C3C00000000
(1547073745.476837) slcan0 087#0000000000000000
(1547073745.476838) slcan0 086#0000000000000000
(1547073745.476839) slcan0 084#20D5A53E0000FA3E
(1547073745.476840) slcan0 083#0000000000000000
(1547073745.476841) slcan0 082#FE8FE2BC00000000
(1547073745.674029) slcan0 081#0000000008000000
(1547073745.674878) slcan0 085#00EC423C00000000
(1547073745.674886) slcan0 087#0000000000000000
(1547073745.674887) slcan0 086#0000000000000000
(1547073745.674888) slcan0 084#C015BB3E80CBEF3E
(1547073745.674890) slcan0 083#0000000000000000
(1547073745.674891) slcan0 082#FF928ABC00000000
(1547073745.877165) slcan0 081#0000000008000000
(1547073745.877178) slcan0 085#00322F3C00000000
(1547073745.877179) slcan0 087#0000000000000000
(1547073745.877180) slcan0 086#0000000000000000
(1547073745.877181) slcan0 084#0000C83E0046B43E
(1547073745.877182) slcan0 083#0000000000000000
(1547073745.877184) slcan0 082#FFBA14BD00000000
(1547073746.078109) slcan0 081#0000000008000000
(1547073746.078145) slcan0 087#0000000000000000
(1547073746.078147) slcan0 086#0000000000000000
(1547073746.078148) slcan0 085#001CBB3B00000000
(1547073746.078150) slcan0 084#A034AD3EA034AD3E
(1547073746.078151) slcan0 083#0000000000000000
(1547073746.078152) slcan0 082#7E825EBD00000000
(1547073746.277010) slcan0 081#0000000008000000
(1547073746.277025) slcan0 087#0000000000000000
(1547073746.277027) slcan0 08A#0000000000000000
(1547073746.277029) slcan0 08E#AA8AE3BC00000000
(1547073746.277031) slcan0 08B#65E185435026C441
(1547073746.277032) slcan0 089#50AA9B3FEB022040
(1547073746.277034) slcan0 088#971CD33FE7CC6B41
(1547073746.277035) slcan0 086#0000000000000000
(1547073746.277037) slcan0 085#0098373C00000000
(1547073746.277038) slcan0 084#C09BDF3E0000C83E
(1547073746.277040) slcan0 083#0000000000000000
(1547073746.277041) slcan0 082#7FD73BBD00000000
(1547073746.277044) slcan0 080#545249617C080000
(1547073746.478534) slcan0 081#0000000008000000
(1547073746.478558) slcan0 087#0000000000000000
(1547073746.478564) slcan0 086#0000000000000000
(1547073746.478566) slcan0 085#002E1F3C00000000
(1547073746.478568) slcan0 084#4020E53E4022D43E
(1547073746.478569) slcan0 083#0000000000000000
(1547073746.478570) slcan0 082#7F6210BD00000000
(1547073746.676039) slcan0 081#0000000008000000
(1547073746.677132) slcan0 085#0012453C00000000
(1547073746.677146) slcan0 087#0000000000000000
(1547073746.677148) slcan0 086#0000000000000000
(1547073746.677149) slcan0 084#0000C83E00A7C13E
(1547073746.677150) slcan0 083#0000000000000000
(1547073746.677152) slcan0 082#FE51E4BC00000000
(1547073746.876128) slcan0 081#0000000008000000
(1547073746.876142) slcan0 085#0034373C00000000
(1547073746.876143) slcan0 087#0000000000000000
(1547073746.876144) slcan0 086#0000000000000000
(1547073746.876146) slcan0 084#A034AD3EC0F1D93E
(1547073746.876147) slcan0 083#0000000000000000
(1547073746.876148) slcan0 082#FFB80CBD00000000
(1547073747.076412) slcan0 081#0000000008000000
(1547073747.076440) slcan0 085#0024293C00000000
(1547073747.076446) slcan0 087#0000000000000000
(1547073747.076451) slcan0 086#0000000000000000
(1547073747.076455) slcan0 084#0027CE3EA034AD3E
(1547073747.076459) slcan0 083#0000000000000000
(1547073747.076463) slcan0 082#FF5C2CBD00000000
(1547073747.278511) slcan0 081#0000000008000000
(1547073747.278545) slcan0 087#0000000000000000
(1547073747.278548) slcan0 08A#0000000000000000
(1547073747.278551) slcan0 08E#AA8AE3BC00000000
(1547073747.278553) slcan0 08B#65E185435026C441
(1547073747.278557) slcan0 089#E4AC9B3FCB042040
(1547073747.278559) slcan0 088#5F1FD33F1ED66B41
(1547073747.278561) slcan0 086#0000000000000000
(1547073747.278563) slcan0 085#0010243C00000000
(1547073747.278566) slcan0 084#00A7C13E0046B43E
(1547073747.278568) slcan0 083#0000000000000000
(1547073747.278570) slcan0 082#FF5939BD00000000
(1547073747.278574) slcan0 080#545249617C080000
(1547073747.476763) slcan0 081#0000000008000000
(1547073747.476781) slcan0 086#0000000000000000
(1547073747.476782) slcan0 087#0000000000000000
(1547073747.476784) slcan0 085#001C223C00000000
(1547073747.476785) slcan0 084#0000963E0027CE3E
(1547073747.476786) slcan0 083#0000000000000000
(1547073747.476787) slcan0 082#FF2A2CBD00000000
(1547073747.679866) slcan0 081#0000000008000000
(1547073747.679892) slcan0 086#0000000000000000
(1547073747.679897) slcan0 087#0000000000000000
(1547073747.679901) slcan0 085#00A44E3C00000000
(1547073747.679905) slcan0 084#A034AD3E0046B43E
(1547073747.679909) slcan0 083#0000000000000000
(1547073747.679912) slcan0 082#FF9C19BD00000000
(1547073747.877491) slcan0 081#0000000008000000
(1547073747.877509) slcan0 085#00A4353C00000000
(1547073747.877511) slcan0 087#0000000000000000
(1547073747.877512) slcan0 086#0000000000000000
(1547073747.877513) slcan0 084#4022D43E201E9E3E
(1547073747.877515) slcan0 083#0000000000000000
(1547073747.877516) slcan0 082#FFBE24BD00000000
(1547073748.076594) slcan0 081#0000000008000000
(1547073748.076610) slcan0 085#0092383C00000000
(1547073748.076611) slcan0 087#0000000000000000
(1547073748.076613) slcan0 086#0000000000000000
(1547073748.076614) slcan0 084#A034AD3EC015BB3E
(1547073748.076615) slcan0 083#0000000000000000
(1547073748.076616) slcan0 082#FEE3EDBC00000000
(1547073748.275502) slcan0 081#0000000008000000
(1547073748.275517) slcan0 085#008C393C00000000
(1547073748.275518) slcan0 08A#0000000000000000
(1547073748.275519) slcan0 08E#AA8AE3BC00000000
(1547073748.275521) slcan0 08B#65E185435026C441
(1547073748.275522) slcan0 089#90B59B3FFE062040
(1547073748.275523) slcan0 088#9D25D33F74D96B41
(1547073748.275525) slcan0 087#0000000000000000
(1547073748.275526) slcan0 086#0000000000000000
(1547073748.275527) slcan0 084#C015BB3E80CBEF3E
(1547073748.275528) slcan0 083#0000000000000000
(1547073748.275530) slcan0 082#7F6503BD00000000
(1547073748.275533) slcan0 080#545249617C080000
(1547073748.473673) slcan0 081#0000000008000000
(1547073748.478258) slcan0 085#00B83A3C00000000
(1547073748.478282) slcan0 087#0000000000000000
(1547073748.478283) slcan0 086#0000000000000000
(1547073748.478284) slcan0 084#4022D43E8085EA3E
(1547073748.478286) slcan0 083#0000000000000000
(1547073748.478287) slcan0 082#FE7DFEBC00000000
(1547073748.676717) slcan0 081#0000000008000000
(1547073748.676731) slcan0 085#00A8453C00000000
(1547073748.676733) slcan0 087#0000000000000000
(1547073748.676734) slcan0 086#0000000000000000
(1547073748.676735) slcan0 084#20D5A53EC09B5F3E
(1547073748.676738) slcan0 083#0000000000000000
(1547073748.676739) slcan0 082#7FAB08BD00000000
(1547073748.876869) slcan0 081#0000000008000000
(1547073748.877740) slcan0 085#00B8213C00000000
(1547073748.877755) slcan0 087#0000000000000000
(1547073748.877757) slcan0 086#0000000000000000
(1547073748.877758) slcan0 084#A034AD3EA034AD3E
(1547073748.877759) slcan0 083#0000000000000000
(1547073748.877760) slcan0 082#FEC5F2BC00000000
(1547073749.076622) slcan0 081#0000000008000000
(1547073749.078305) slcan0 085#004A2B3C00000000
(1547073749.078347) slcan0 087#0000000000000000
(1547073749.078356) slcan0 086#0000000000000000
(1547073749.078359) slcan0 084#00A7C13EC015BB3E
(1547073749.080089) slcan0 083#0000000000000000
(1547073749.080103) slcan0 082#7F9019BD00000000
(1547073749.277113) slcan0 081#0000000008000000
(1547073749.277127) slcan0 085#00863A3C00000000
(1547073749.277129) slcan0 08A#0000000000000000
(1547073749.277130) slcan0 08E#AA8AE3BC00000000
(1547073749.277132) slcan0 08B#059983435026C441
(1547073749.277133) slcan0 089#F4B29B3F790B2040
(1547073749.277134) slcan0 088#EF25D33F57D66B41
(1547073749.277136) slcan0 087#0000000000000000
(1547073749.277137) slcan0 086#0000000000000000
(1547073749.277138) slcan0 084#C015BB3EC09BDF3E
(1547073749.277139) slcan0 083#0000000000000000
(1547073749.277141) slcan0 082#FF1B22BD00000000
(1547073749.277144) slcan0 080#545249617C080000
(1547073749.477550) slcan0 081#0000000008000000
(1547073749.479802) slcan0 085#007C443C00000000
(1547073749.479833) slcan0 087#0000000000000000
(1547073749.479835) slcan0 086#0000000000000000
(1547073749.479836) slcan0 084#00A7C13EC09BDF3E
(1547073749.479837) slcan0 083#0000000000000000
(1547073749.479839) slcan0 082#7F2601BD00000000
(1547073749.676635) slcan0 081#0000000008000000
(1547073749.678691) slcan0 086#0000000000000000
(1547073749.678719) slcan0 087#0000000000000000
(1547073749.678721) slcan0 085#00EC423C00000000
(1547073749.678723) slcan0 084#8085EA3E0000C83E
(1547073749.678724) slcan0 083#0000000000000000
(1547073749.678725) slcan0 082#FEFEDCBC00000000
(1547073749.876917) slcan0 081#0000000008000000
(1547073749.876929) slcan0 086#0000000000000000
(1547073749.876930) slcan0 087#0000000000000000
(1547073749.876931) slcan0 085#007C443C00000000
(1547073749.876933) slcan0 084#C015BB3E0027CE3E
(1547073749.876934) slcan0 083#0000000000000000
(1547073749.876935) slcan0 082#FEF3FBBC00000000
(1547073750.077097) slcan0 081#0000000008000000
(1547073750.077130) slcan0 085#00A0F03B00000000
(1547073750.077132) slcan0 087#0000000000000000
(1547073750.077133) slcan0 086#0000000000000000
(1547073750.077135) slcan0 084#0000FA3E20D5A53E
(1547073750.077136) slcan0 083#0000000000000000
(1547073750.077138) slcan0 082#FE3E4ABD00000000
(1547073750.278422) slcan0 081#0000000008000000
(1547073750.278438) slcan0 086#0000000000000000
(1547073750.278440) slcan0 08A#0000000000000000
(1547073750.278442) slcan0 08E#AA8AE3BC00000000
(1547073750.278443) slcan0 08D#AF3B93C1AF3B93C1
(1547073750.278444) slcan0 08C#28E913425054DA41
(1547073750.278446) slcan0 08B#65E185435026C441
(1547073750.278447) slcan0 089#B4AF9B3FB7092040
(1547073750.278448) slcan0 088#2829D33F35D86B41
(1547073750.278450) slcan0 087#0000000000000000
(1547073750.278452) slcan0 085#00DC1B3C00000000
(1547073750.278453) slcan0 084#0000C83EA034AD3E
(1547073750.278456) slcan0 083#0000000000000000
(1547073750.278457) slcan0 082#7FEB0EBD00000000
(1547073750.278459) slcan0 080#545249617C080000
(1547073750.478718) slcan0 081#0000000008000000
(1547073750.478734) slcan0 085#0006153C00000000
(1547073750.478736) slcan0 087#0000000000000000
(1547073750.478737) slcan0 086#0000000000000000
(1547073750.478739) slcan0 084#C015BB3E4022D43E
(1547073750.478740) slcan0 083#0000000000000000
(1547073750.478741) slcan0 082#7F9E1FBD00000000
(1547073750.677179) slcan0 081#0000000008000000
(1547073750.677208) slcan0 085#00F4E23B00000000
(1547073750.677210) slcan0 087#0000000000000000
(1547073750.677211) slcan0 086#0000000000000000
(1547073750.677213) slcan0 084#A034AD3E0027CE3E
(1547073750.677214) slcan0 083#0000000000000000
(1547073750.677215) slcan0 082#FFAD44BD00000000
(1547073750.877304) slcan0 081#0000000008000000
(1547073750.878237) slcan0 085#0090FB3B00000000
(1547073750.878248) slcan0 087#0000000000000000
(1547073750.878249) slcan0 086#0000000000000000
(1547073750.878251) slcan0 084#C09B5F3EC015BB3E
(1547073750.878252) slcan0 083#0000000000000000
(1547073750.878253) slcan0 082#FFA72CBD00000000
(1547073751.077274) slcan0 081#0000000008000000
(1547073751.077287) slcan0 087#0000000000000000
(1547073751.077289) slcan0 086#0000000000000000
(1547073751.077290) slcan0 085#00683F3C00000000
(1547073751.077292) slcan0 084#4022D43E00A7C13E
(1547073751.077293) slcan0 083#0000000000000000
(1547073751.077294) slcan0 082#FEDED9BC00000000
(1547073751.279146) slcan0 081#0000000008000000
(1547073751.279161) slcan0 087#0000000000000000
(1547073751.279163) slcan0 08A#0000000000000000
(1547073751.279164) slcan0 08E#AA8AE3BC00000000
(1547073751.279166) slcan0 08B#65E185435026C441
(1547073751.279167) slcan0 089#11B49B3FAE0B2040
(1547073751.279169) slcan0 088#C32CD33F8FD96B41
(1547073751.279170) slcan0 086#0000000000000000
(1547073751.279171) slcan0 085#0028393C00000000
(1547073751.279172) slcan0 084#0046B43E4022D43E
(1547073751.279174) slcan0 083#0000000000000000
(1547073751.279175) slcan0 082#FE46EABC00000000
(1547073751.279177) slcan0 080#545249617C080000
(1547073751.479725) slcan0 081#0000000008000000
(1547073751.479752) slcan0 085#00C6403C00000000
(1547073751.479754) slcan0 087#0000000000000000
(1547073751.479755) slcan0 086#0000000000000000
(1547073751.479757) slcan0 084#4022D43E0027CE3E
(1547073751.479758) slcan0 083#0000000000000000
(1547073751.479759) slcan0 082#FF1A9EBC00000000
(1547073751.682778) slcan0 081#0000000008000000
(1547073751.682792) slcan0 085#008A313C00000000
(1547073751.682793) slcan0 087#0000000000000000
(1547073751.682794) slcan0 086#0000000000000000
(1547073751.682795) slcan0 084#40F2F43E80CBEF3E
(1547073751.682797) slcan0 083#0000000000000000
(1547073751.682798) slcan0 082#7F1A1CBD00000000
(1547073751.880016) slcan0 081#0000000008000000
(1547073751.880032) slcan0 085#005C413C00000000
(1547073751.880034) slcan0 087#0000000000000000
(1547073751.880037) slcan0 086#0000000000000000
(1547073751.880039) slcan0 084#4022D43EC0F1D93E
(1547073751.880040) slcan0 083#0000000000000000
(1547073751.880041) slcan0 082#7FD709BD00000000
(1547073752.081198) slcan0 081#0000000008000000
(1547073752.081212) slcan0 085#007C443C00000000
(1547073752.083385) slcan0 087#0000000000000000
(1547073752.083423) slcan0 086#0000000000000000
(1547073752.083426) slcan0 084#C015BB3EC015BB3E
(1547073752.083428) slcan0 083#0000000000000000
(1547073752.083429) slcan0 082#FE20E8BC00000000
(1547073752.277543) slcan0 081#0000000008000000
(1547073752.277556) slcan0 087#0000000000000000
(1547073752.277558) slcan0 08A#0000000000000000
(1547073752.277559) slcan0 08E#AA8AE3BC00000000
(1547073752.277561) slcan0 08B#65E185435026C441
(1547073752.277565) slcan0 089#74B39B3FC80B2040
(1547073752.277566) slcan0 088#7329D33F65D56B41
(1547073752.277568) slcan0 086#0000000000000000
(1547073752.277569) slcan0 085#00E6433C00000000
(1547073752.277571) slcan0 084#0027CE3EA034AD3E
(1547073752.277572) slcan0 083#0000000000000000
(1547073752.277574) slcan0 082#FF3CC2BC00000000
(1547073752.277576) slcan0 080#545249617C080000
(1547073752.478788) slcan0 081#0000000008000000
(1547073752.478819) slcan0 085#00A4033C00000000
(1547073752.478825) slcan0 087#0000000000000000
(1547073752.478831) slcan0 086#0000000000000000
(1547073752.478836) slcan0 084#A034AD3E00A7C13E
(1547073752.478843) slcan0 083#0000000000000000
(1547073752.478848) slcan0 082#FF2446BD00000000
(1547073752.678833) slcan0 081#0000000008000000
(1547073752.678856) slcan0 085#00FA483C00000000
(1547073752.678860) slcan0 087#0000000000000000
(1547073752.678863) slcan0 086#0000000000000000
(1547073752.678867) slcan0 084#00A7C13E00A7C13E
(1547073752.678870) slcan0 083#0000000000000000
(1547073752.678873) slcan0 082#FE95C8BC00000000
(1547073752.878770) slcan0 081#0000000008000000
(1547073752.878783) slcan0 087#0000000000000000
(1547073752.878833) slcan0 086#0000000000000000
(1547073752.878838) slcan0 085#00EC423C00000000
(1547073752.878840) slcan0 084#C09BDF3E00A7C13E
(1547073752.878841) slcan0 083#0000000000000000
(1547073752.878842) slcan0 082#FF62ABBC00000000
(1547073753.079155) slcan0 081#0000000008000000
(1547073753.079171) slcan0 085#00AA4D3C00000000
(1547073753.079173) slcan0 087#0000000000000000
(1547073753.079174) slcan0 086#0000000000000000
(1547073753.079176) slcan0 084#C015BB3E00A7C13E
(1547073753.079177) slcan0 083#0000000000000000
(1547073753.079178) slcan0 082#FFAEAFBC00000000
(1547073753.280339) slcan0 081#0000000008000000
(1547073753.280351) slcan0 087#0000000000000000
(1547073753.280352) slcan0 08A#0000000000000000
(1547073753.280353) slcan0 08E#AA8AE3BC00000000
(1547073753.280354) slcan0 08B#65E185435026C441
(1547073753.280356) slcan0 089#07B79B3F83052040
(1547073753.280357) slcan0 088#DD28D33F58DD6B41
(1547073753.280358) slcan0 086#0000000000000000
(1547073753.280358) slcan0 085#00D83D3C00000000
(1547073753.280360) slcan0 084#C09BDF3EA049843E
(1547073753.280361) slcan0 083#0000000000000000
(1547073753.280362) slcan0 082#FE00E5BC00000000
(1547073753.280365) slcan0 080#545249617C080000
(1547073753.480790) slcan0 081#0000000008000000
(1547073753.480809) slcan0 085#002C303C00000000
(1547073753.480811) slcan0 087#0000000000000000
(1547073753.480813) slcan0 086#0000000000000000
(1547073753.480814) slcan0 084#C015BB3E0046B43E
(1547073753.480816) slcan0 083#0000000000000000
(1547073753.480823) slcan0 082#FF7E1EBD00000000
(1547073753.679687) slcan0 081#0000000008000000
(1547073753.679709) slcan0 085#006E3E3C00000000
(1547073753.679713) slcan0 087#0000000000000000
(1547073753.679715) slcan0 086#0000000000000000
(1547073753.679718) slcan0 084#0027CE3EC0F1D93E
(1547073753.679721) slcan0 083#0000000000000000
(1547073753.679724) slcan0 082#7F651CBD00000000
(1547073753.878215) slcan0 081#0000000008000000
(1547073753.878244) slcan0 085#0050433C00000000
(1547073753.878249) slcan0 087#0000000000000000
(1547073753.878252) slcan0 086#0000000000000000
(1547073753.878258) slcan0 084#40F2743E0000C83E
(1547073753.878261) slcan0 083#0000000000000000
(1547073753.878265) slcan0 082#FFE6AEBC00000000
(1547073754.079036) slcan0 081#0000000008000000
(1547073754.079054) slcan0 085#002E383C00000000
(1547073754.079056) slcan0 087#0000000000000000
(1547073754.079060) slcan0 086#0000000000000000
(1547073754.079062) slcan0 084#0000C83EC09BDF3E
(1547073754.079064) slcan0 083#0000000000000000
(1547073754.079066) slcan0 082#FF930EBD00000000
(1547073754.279367) slcan0 081#0000000008000000
(1547073754.279411) slcan0 085#00FA2F3C00000000
(1547073754.279419) slcan0 08A#0000000000000000
(1547073754.279426) slcan0 08E#AA8AE3BC00000000
(1547073754.279434) slcan0 08B#65E185435026C441
(1547073754.279440) slcan0 089#2FB49B3FCB042040
(1547073754.279447) slcan0 088#A326D33FF3D76B41
(1547073754.279453) slcan0 087#0000000000000000
(1547073754.279458) slcan0 086#0000000000000000
(1547073754.279468) slcan0 084#C015BB3E00A7C13E
(1547073754.279474) slcan0 083#0000000000000000
(1547073754.279481) slcan0 082#FF4606BD00000000
(1547073754.279491) slcan0 080#545249617C080000
(1547073754.478142) slcan0 081#0000000008000000
(1547073754.478153) slcan0 087#0000000000000000
(1547073754.478155) slcan0 086#0000000000000000
(1547073754.478156) slcan0 085#00EC293C00000000
(1547073754.478157) slcan0 084#20D5A53E0000C83E
(1547073754.478158) slcan0 083#0000000000000000
(1547073754.478159) slcan0 082#FFB20DBD00000000
(1547073754.678509) slcan0 081#0000000008000000
(1547073754.678542) slcan0 085#00B23B3C00000000
(1547073754.678548) slcan0 087#0000000000000000
(1547073754.678553) slcan0 086#0000000000000000
(1547073754.678558) slcan0 084#4020E53E0027CE3E
(1547073754.678563) slcan0 083#0000000000000000
(1547073754.678568) slcan0 082#FF7C16BD00000000
(1547073754.879844) slcan0 081#0000000008000000
(1547073754.879882) slcan0 085#00DC4D3C00000000
(1547073754.879888) slcan0 087#0000000000000000
(1547073754.879893) slcan0 086#0000000000000000
(1547073754.879898) slcan0 084#00A7C13EC0F1D93E
(1547073754.879903) slcan0 083#0000000000000000
(1547073754.879909) slcan0 082#FED0ECBC00000000
(1547073755.079928) slcan0 081#0000000008000000
(1547073755.079943) slcan0 086#0000000000000000
(1547073755.079945) slcan0 087#0000000000000000
(1547073755.079946) slcan0 085#00EC423C00000000
(1547073755.079948) slcan0 084#C015BB3E00A7C13E
(1547073755.079949) slcan0 083#0000000000000000
(1547073755.079951) slcan0 082#FECF68BC00000000
(1547073755.280505) slcan0 081#0000000008000000
(1547073755.280518) slcan0 087#0000000000000000
(1547073755.280520) slcan0 08A#0000000000000000
(1547073755.280521) slcan0 08E#AA8AE3BC00000000
(1547073755.280523) slcan0 08D#AF3B93C1AF3B93C1
(1547073755.280524) slcan0 08C#28E913425054DA41
(1547073755.280525) slcan0 08B#059983435026C441
(1547073755.280529) slcan0 089#B4BE9B3FAE0B2040
(1547073755.280532) slcan0 088#1832D33F06E46B41
(1547073755.280533) slcan0 086#0000000000000000
(1547073755.280534) slcan0 085#0030593C00000000
(1547073755.280535) slcan0 084#4022D43E0027CE3E
(1547073755.280541) slcan0 083#0000000000000000
(1547073755.280543) slcan0 082#FE1776BC00000000
(1547073755.280544) slcan0 080#545249617C080000
(1547073755.478969) slcan0 081#0000000008000000
(1547073755.478983) slcan0 087#0000000000000000
(1547073755.478985) slcan0 086#0000000000000000
(1547073755.478986) slcan0 085#00F4493C00000000
(1547073755.478988) slcan0 084#C015BB3EC09BDF3E
(1547073755.478990) slcan0 083#0000000000000000
(1547073755.478991) slcan0 082#FE9CCBBC00000000
(1547073755.725738) slcan0 081#0000000008000000
(1547073755.725765) slcan0 085#0062403C00000000
(1547073755.725768) slcan0 087#0000000000000000
(1547073755.725769) slcan0 086#0000000000000000
(1547073755.725771) slcan0 084#0000C83E206B0D3F
(1547073755.725772) slcan0 083#0000000000000000
(1547073755.725775) slcan0 082#FF69C7BC00000000
(1547073755.880900) slcan0 081#0000000008000000
(1547073755.880914) slcan0 087#0000000000000000
(1547073755.880916) slcan0 086#0000000000000000
(1547073755.880917) slcan0 085#003E2D3C00000000
(1547073755.880919) slcan0 084#0046B43E00A7C13E
(1547073755.880922) slcan0 083#0000000000000000
(1547073755.880924) slcan0 082#FF600ABD00000000
(1547073756.081886) slcan0 081#0000000008000000
(1547073756.081928) slcan0 085#00803B3C00000000
(1547073756.081934) slcan0 087#0000000000000000
(1547073756.081939) slcan0 086#0000000000000000
(1547073756.081943) slcan0 084#0046B43E4022D43E
(1547073756.081948) slcan0 083#0000000000000000
(1547073756.081953) slcan0 082#FF2603BD00000000
(1547073756.278892) slcan0 081#0000000008000000
(1547073756.278925) slcan0 085#00F0393C00000000
(1547073756.278932) slcan0 08A#0000000000000000
(1547073756.278937) slcan0 08E#AA8AE3BC00000000
(1547073756.278942) slcan0 08B#65E185435026C441
(1547073756.278947) slcan0 089#FDB19B3F5B082040
(1547073756.278952) slcan0 088#8C27D33FFDD56B41
(1547073756.278957) slcan0 087#0000000000000000
(1547073756.278961) slcan0 086#0000000000000000
(1547073756.278966) slcan0 084#0000C83E4022D43E
(1547073756.278970) slcan0 083#0000000000000000
(1547073756.278975) slcan0 082#7F6008BD00000000
(1547073756.278983) slcan0 080#545249617C080000
(1547073756.479850) slcan0 081#0000000008000000
(1547073756.479876) slcan0 087#0000000000000000
(1547073756.479880) slcan0 086#0000000000000000
(1547073756.479884) slcan0 085#00204B3C00000000
(1547073756.479889) slcan0 084#C09BDF3E0046B43E
(1547073756.479893) slcan0 083#0000000000000000
(1547073756.479896) slcan0 082#FF3B0CBD00000000
(1547073756.678044) slcan0 081#0000000008000000
(1547073756.678066) slcan0 087#0000000000000000
(1547073756.678069) slcan0 086#0000000000000000
(1547073756.680195) slcan0 085#00EE313C00000000
(1547073756.680218) slcan0 084#C0F1D93E80CBEF3E
(1547073756.680222) slcan0 083#0000000000000000
(1547073756.680225) slcan0 082#FF1406BD00000000
(1547073756.884771) slcan0 081#0000000008000000
(1547073756.884803) slcan0 087#0000000000000000
(1547073756.884806) slcan0 086#0000000000000000
(1547073756.884807) slcan0 085#005E173C00000000
(1547073756.884809) slcan0 084#00A7C13EA034AD3E
(1547073756.884810) slcan0 083#0000000000000000
(1547073756.884812) slcan0 082#FF6622BD00000000
(1547073757.080458) slcan0 081#0000000008000000
(1547073757.080484) slcan0 085#00043F3C00000000
(1547073757.080490) slcan0 087#0000000000000000
(1547073757.080493) slcan0 086#0000000000000000
(1547073757.080496) slcan0 084#C015BB3E206B0D3F
(1547073757.080498) slcan0 083#0000000000000000
(1547073757.080501) slcan0 082#FFD80FBD00000000
(1547073757.279843) slcan0 081#0000000008000000
(1547073757.279865) slcan0 087#0000000000000000
(1547073757.279868) slcan0 08A#0000000000000000
(1547073757.279870) slcan0 08E#AA8AE3BC00000000
(1547073757.279871) slcan0 08B#65E185435026C441
(1547073757.279873) slcan0 089#D3B59B3F10082040
(1547073757.279874) slcan0 088#2E2BD33F3CDB6B41
(1547073757.279875) slcan0 086#0000000000000000
(1547073757.279877) slcan0 085#00BC4A3C00000000
(1547073757.279878) slcan0 084#0046B43E0000C83E
(1547073757.279879) slcan0 083#0000000000000000
(1547073757.279881) slcan0 082#FF7FBBBC00000000
(1547073757.279885) slcan0 080#545249617C080000
(1547073757.479591) slcan0 081#0000000008000000
(1547073757.479622) slcan0 085#009A3F3C00000000
(1547073757.479624) slcan0 087#0000000000000000
(1547073757.479626) slcan0 086#0000000000000000
(1547073757.479629) slcan0 084#20D5A53E0000C83E
(1547073757.479631) slcan0 083#0000000000000000
(1547073757.481823) slcan0 082#FE18FABC00000000
(1547073757.679970) slcan0 081#0000000008000000
(1547073757.679983) slcan0 085#0084CB3B00000000
(1547073757.679985) slcan0 087#0000000000000000
(1547073757.679986) slcan0 086#0000000000000000
(1547073757.679987) slcan0 084#00A7C13E20D5A53E
(1547073757.679988) slcan0 083#0000000000000000
(1547073757.679989) slcan0 082#7E7250BD00000000
(1547073757.879211) slcan0 081#0000000008000000
(1547073757.879244) slcan0 085#00122C3C00000000
(1547073757.879250) slcan0 087#0000000000000000
(1547073757.879255) slcan0 086#0000000000000000
(1547073757.879261) slcan0 084#0000C83E0000C83E
(1547073757.879266) slcan0 083#0000000000000000
(1547073757.879271) slcan0 082#7F6418BD00000000
(1547073758.084293) slcan0 081#0000000008000000
(1547073758.084325) slcan0 085#0084193C00000000
(1547073758.084327) slcan0 087#0000000000000000
(1547073758.084329) slcan0 086#0000000000000000
(1547073758.084331) slcan0 084#C015BB3EC015BB3E
(1547073758.084332) slcan0 083#0000000000000000
(1547073758.084333) slcan0 082#FE384BBD00000000
(1547073758.280584) slcan0 081#0000000008000000
(1547073758.280600) slcan0 087#0000000000000000
(1547073758.280601) slcan0 08A#0000000000000000
(1547073758.280603) slcan0 08E#AA8AE3BC00000000
(1547073758.280604) slcan0 08B#65E185435026C441
(1547073758.280606) slcan0 089#E9A79B3F23002040
(1547073758.280607) slcan0 088#811BD33F5BCB6B41
(1547073758.280608) slcan0 086#0000000000000000
(1547073758.280609) slcan0 085#0030273C00000000
(1547073758.280611) slcan0 084#A034AD3EC09BDF3E
(1547073758.280612) slcan0 083#0000000000000000
(1547073758.280614) slcan0 082#7F733BBD00000000
(1547073758.280616) slcan0 080#545249617C080000
(1547073758.481883) slcan0 081#0000000008000000
(1547073758.481915) slcan0 085#0094F23B00000000
(1547073758.481922) slcan0 087#0000000000000000
(1547073758.481926) slcan0 086#0000000000000000
(1547073758.481931) slcan0 084#0046B43E4020E53E
(1547073758.481936) slcan0 083#0000000000000000
(1547073758.481941) slcan0 082#7FA333BD00000000
(1547073758.680865) slcan0 081#0000000008000000
(1547073758.680881) slcan0 085#009A263C00000000
(1547073758.680883) slcan0 087#0000000000000000
(1547073758.680884) slcan0 086#0000000000000000
(1547073758.680886) slcan0 084#C015BB3E00A7C13E
(1547073758.680887) slcan0 083#0000000000000000
(1547073758.680888) slcan0 082#7FB530BD00000000
(1547073758.886875) slcan0 081#0000000008000000
(1547073758.886890) slcan0 087#0000000000000000
(1547073758.886892) slcan0 086#0000000000000000
(1547073758.886893) slcan0 085#003C3E3C00000000
(1547073758.886895) slcan0 084#00A7C13E80CBEF3E
(1547073758.886896) slcan0 083#0000000000000000
(1547073758.886898) slcan0 082#FE4DEDBC00000000
(1547073759.080359) slcan0 081#0000000008000000
(1547073759.080374) slcan0 085#00BE393C00000000
(1547073759.080376) slcan0 087#0000000000000000
(1547073759.080377) slcan0 086#0000000000000000
(1547073759.080379) slcan0 084#4020E53E0046B43E
(1547073759.080380) slcan0 083#0000000000000000
(1547073759.080382) slcan0 082#FFA817BD00000000
(1547073759.279548) slcan0 081#0000000008000000
(1547073759.279575) slcan0 087#0000000000000000
(1547073759.279580) slcan0 08A#0000000000000000
(1547073759.279584) slcan0 08E#AA8AE3BC00000000
(1547073759.279588) slcan0 08B#65E185435026C441
(1547073759.279592) slcan0 089#BEB49B3F34092040
(1547073759.279596) slcan0 088#DB2AD33F8DD66B41
(1547073759.279600) slcan0 086#0000000000000000
(1547073759.279607) slcan0 085#00483C3C00000000
(1547073759.279611) slcan0 084#0000963EC09B5F3E
(1547073759.279615) slcan0 083#0000000000000000
(1547073759.279619) slcan0 082#FF0DB5BC00000000
(1547073759.279625) slcan0 080#545249617C080000
(1547073759.480570) slcan0 081#0000000008000000
(1547073759.480598) slcan0 087#0000000000000000
(1547073759.480601) slcan0 086#0000000000000000
(1547073759.480604) slcan0 085#0094403C00000000
(1547073759.480607) slcan0 084#0027CE3EC0F1D93E
(1547073759.480609) slcan0 083#0000000000000000
(1547073759.480611) slcan0 082#FF8026BD00000000
(1547073759.679766) slcan0 081#0000000008000000
(1547073759.679793) slcan0 085#00C0413C00000000
(1547073759.679795) slcan0 087#0000000000000000
(1547073759.679797) slcan0 086#0000000000000000
(1547073759.679798) slcan0 084#4022D43E20D5A53E
(1547073759.679799) slcan0 083#0000000000000000
(1547073759.679801) slcan0 082#FE87F4BC00000000
(1547073759.881209) slcan0 081#0000000008000000
(1547073759.881232) slcan0 085#00AE443C00000000
(1547073759.881235) slcan0 087#0000000000000000
(1547073759.881238) slcan0 086#0000000000000000
(1547073759.881246) slcan0 084#0046B43EC0F1D93E
(1547073759.881251) slcan0 083#0000000000000000
(1547073759.881254) slcan0 082#FEA3E7BC00000000
(1547073760.082855) slcan0 081#0000000008000000
(1547073760.082880) slcan0 085#0000483C00000000
(1547073760.082882) slcan0 087#0000000000000000
(1547073760.082884) slcan0 086#0000000000000000
(1547073760.082885) slcan0 084#C015BB3E0027CE3E
(1547073760.082886) slcan0 083#0000000000000000
(1547073760.082888) slcan0 082#FF3DADBC00000000
(1547073760.278933) slcan0 081#0000000008000000
(1547073760.278955) slcan0 087#0000000000000000
(1547073760.278958) slcan0 08A#0000000000000000
(1547073760.278961) slcan0 08E#AA8AE3BC00000000
(1547073760.278963) slcan0 08D#AF3B93C1AF3B93C1
(1547073760.278966) slcan0 08C#28E913425054DA41
(1547073760.278969) slcan0 08B#65E185435026C441
(1547073760.278972) slcan0 089#7AB49B3FE00A2040
(1547073760.278974) slcan0 088#612CD33FC0DC6B41
(1547073760.278977) slcan0 086#0000000000000000
(1547073760.278980) slcan0 085#002A733C00000000
(1547073760.278982) slcan0 084#4022D43E201E9E3E
(1547073760.278987) slcan0 083#0000000000000000
(1547073760.278990) slcan0 082#FFC3B8BC00000000
(1547073760.278993) slcan0 080#545249617C080000
(1547073760.480800) slcan0 081#0000000008000000
(1547073760.480823) slcan0 085#00464D3C00000000
(1547073760.480827) slcan0 087#0000000000000000
(1547073760.480830) slcan0 086#0000000000000000
(1547073760.480833) slcan0 084#0027CE3EA034AD3E
(1547073760.480836) slcan0 083#0000000000000000
(1547073760.480838) slcan0 082#FF76B0BC00000000
(1547073760.679747) slcan0 081#0000000008000000
(1547073760.679761) slcan0 085#001E2A3C00000000
(1547073760.679763) slcan0 087#0000000000000000
(1547073760.679764) slcan0 086#0000000000000000
(1547073760.679765) slcan0 084#0027CE3E8085EA3E
(1547073760.679766) slcan0 083#0000000000000000
(1547073760.679767) slcan0 082#7F7C14BD00000000
(1547073760.880797) slcan0 081#0000000008000000
(1547073760.880812) slcan0 085#00B0333C00000000
(1547073760.880813) slcan0 087#0000000000000000
(1547073760.880815) slcan0 086#0000000000000000
(1547073760.880816) slcan0 084#4022D43E0027CE3E
(1547073760.880817) slcan0 083#0000000000000000
(1547073760.880818) slcan0 082#7FFA18BD00000000
(1547073761.082947) slcan0 081#0000000008000000
(1547073761.082989) slcan0 085#00683F3C00000000
(1547073761.082995) slcan0 087#0000000000000000
(1547073761.082997) slcan0 086#0000000000000000
(1547073761.083002) slcan0 084#A034AD3E0000963E
(1547073761.083004) slcan0 083#0000000000000000
(1547073761.083005) slcan0 082#FF4B1ABD00000000
(1547073761.281219) slcan0 081#0000000008000000
(1547073761.281253) slcan0 087#0000000000000000
(1547073761.281255) slcan0 08A#0000000000000000
(1547073761.281256) slcan0 08E#AA8AE3BC00000000
(1547073761.281258) slcan0 08B#65E185435026C441
(1547073761.281259) slcan0 089#95B09B3F03062040
(1547073761.281261) slcan0 088#8625D33FC0D76B41
(1547073761.281262) slcan0 086#0000000000000000
(1547073761.281264) slcan0 085#00C0413C00000000
(1547073761.281265) slcan0 084#4022D43E40F2F43E
(1547073761.281266) slcan0 083#0000000000000000
(1547073761.281268) slcan0 082#7F011CBD00000000
(1547073761.281272) slcan0 080#545249617C080000
(1547073761.483062) slcan0 081#0000000008000000
(1547073761.483076) slcan0 085#005C413C00000000
(1547073761.483078) slcan0 087#0000000000000000
(1547073761.483079) slcan0 086#0000000000000000
(1547073761.483081) slcan0 084#4020E53E4020E53E
(1547073761.483082) slcan0 083#0000000000000000
(1547073761.483083) slcan0 082#FE25FCBC00000000
(1547073761.680986) slcan0 081#0000000008000000
(1547073761.681039) slcan0 087#0000000000000000
(1547073761.681051) slcan0 086#0000000000000000
(1547073761.681060) slcan0 085#00FC373C00000000
(1547073761.681068) slcan0 084#00A7C13EC015BB3E
(1547073761.681074) slcan0 083#0000000000000000
(1547073761.681080) slcan0 082#FE93D9BC00000000
(1547073761.881242) slcan0 081#0000000008000000
(1547073761.881267) slcan0 085#0040353C00000000
(1547073761.881272) slcan0 087#0000000000000000
(1547073761.881275) slcan0 086#0000000000000000
(1547073761.881279) slcan0 084#A034AD3E4020E53E
(1547073761.881282) slcan0 083#0000000000000000
(1547073761.881285) slcan0 082#FE84CFBC00000000
(1547073762.081170) slcan0 081#0000000008000000
(1547073762.081186) slcan0 085#00043F3C00000000
(1547073762.081188) slcan0 087#0000000000000000
(1547073762.081190) slcan0 086#0000000000000000
(1547073762.081191) slcan0 084#0000C83E0027CE3E
(1547073762.081193) slcan0 083#0000000000000000
(1547073762.081194) slcan0 082#7F610CBD00000000
(1547073762.280095) slcan0 081#0000000008000000
(1547073762.280124) slcan0 087#0000000000000000
(1547073762.280125) slcan0 08A#0000000000000000
(1547073762.280127) slcan0 08E#AA8AE3BC00000000
(1547073762.280128) slcan0 08B#65E185435026C441
(1547073762.280129) slcan0 089#93B29B3FED042040
(1547073762.280130) slcan0 088#B523D33FBDD66B41
(1547073762.280131) slcan0 086#0000000000000000
(1547073762.280132) slcan0 085#005E303C00000000
(1547073762.280133) slcan0 084#A034AD3E20D5A53E
(1547073762.280134) slcan0 083#0000000000000000
(1547073762.280135) slcan0 082#7FC818BD00000000
(1547073762.280138) slcan0 080#545249617C080000
(1547073762.512572) slcan0 081#0000000008000000
(1547073762.512588) slcan0 085#001E433C00000000
(1547073762.512589) slcan0 087#0000000000000000
(1547073762.512591) slcan0 086#0000000000000000
(1547073762.512592) slcan0 084#A034AD3E0046B43E
(1547073762.512593) slcan0 083#0000000000000000
(1547073762.512594) slcan0 082#FE6FF8BC00000000
(1547073762.681429) slcan0 081#0000000008000000
(1547073762.681443) slcan0 087#0000000000000000
(1547073762.681444) slcan0 086#0000000000000000
(1547073762.681446) slcan0 085#0010D63B00000000
(1547073762.681447) slcan0 084#00A7C13E0046B43E
(1547073762.681448) slcan0 083#0000000000000000
(1547073762.681449) slcan0 082#FF6C3ABD00000000
(1547073762.882900) slcan0 081#0000000008000000
(1547073762.882927) slcan0 085#0088C23B00000000
(1547073762.882935) slcan0 087#0000000000000000
(1547073762.882938) slcan0 086#0000000000000000
(1547073762.882942) slcan0 084#20D5A53EC0F1D93E
(1547073762.882945) slcan0 083#0000000000000000
(1547073762.882948) slcan0 082#7FA743BD00000000
(1547073763.081946) slcan0 081#0000000008000000
(1547073763.081959) slcan0 085#007A233C00000000
(1547073763.081961) slcan0 087#0000000000000000
(1547073763.081962) slcan0 086#0000000000000000
(1547073763.081963) slcan0 084#0046B43E20D5A53E
(1547073763.081964) slcan0 083#0000000000000000
(1547073763.081965) slcan0 082#7FC818BD00000000
(1547073763.282055) slcan0 081#0000000008000000
(1547073763.282071) slcan0 085#00E8323C00000000
(1547073763.282074) slcan0 08A#0000000000000000
(1547073763.282075) slcan0 08E#AA8AE3BC00000000
(1547073763.282077) slcan0 08B#059983435026C441
(1547073763.282078) slcan0 089#ECAB9B3FDD012040
(1547073763.282079) slcan0 088#9221D33F57D06B41
(1547073763.284193) slcan0 087#0000000000000000
(1547073763.284208) slcan0 086#0000000000000000
(1547073763.284210) slcan0 084#4022D43E0000C83E
(1547073763.284211) slcan0 083#0000000000000000
(1547073763.284212) slcan0 082#FF2329BD00000000
(1547073763.284214) slcan0 080#545249617C080000
(1547073763.480474) slcan0 081#0000000008000000
(1547073763.480487) slcan0 087#0000000000000000
(1547073763.480488) slcan0 086#0000000000000000
(1547073763.480489) slcan0 085#00DC343C00000000
(1547073763.480490) slcan0 084#4020E53E0000C83E
(1547073763.480491) slcan0 083#0000000000000000
(1547073763.480492) slcan0 082#FF711CBD00000000
(1547073763.681847) slcan0 081#0000000008000000
(1547073763.681875) slcan0 085#00CC3F3C00000000
(1547073763.681879) slcan0 087#0000000000000000
(1547073763.681882) slcan0 086#0000000000000000
(1547073763.681884) slcan0 084#0000963EC015BB3E
(1547073763.681887) slcan0 083#0000000000000000
(1547073763.681890) slcan0 082#FFA628BD00000000
(1547073763.881559) slcan0 081#0000000008000000
(1547073763.881572) slcan0 085#00AE2B3C00000000
(1547073763.881573) slcan0 087#0000000000000000
(1547073763.881574) slcan0 086#0000000000000000
(1547073763.881575) slcan0 084#0000963E0046B43E
(1547073763.881576) slcan0 083#0000000000000000
(1547073763.881577) slcan0 082#FF2121BD00000000
(1547073764.080651) slcan0 081#0000000008000000
(1547073764.080667) slcan0 085#00C6403C00000000
(1547073764.080669) slcan0 087#0000000000000000
(1547073764.080670) slcan0 086#0000000000000000
(1547073764.080672) slcan0 084#0046B43E40F2F43E
(1547073764.080673) slcan0 083#0000000000000000
(1547073764.080674) slcan0 082#7FB80ABD00000000
(1547073764.283093) slcan0 081#0000000008000000
(1547073764.283114) slcan0 085#00EA3A3C00000000
(1547073764.283116) slcan0 08A#0000000000000000
(1547073764.283119) slcan0 08E#AA8AE3BC00000000
(1547073764.283121) slcan0 08B#65E185435026C441
(1547073764.283123) slcan0 089#A6B59B3FE00A2040
(1547073764.283126) slcan0 088#AE2AD33FB8DA6B41
(1547073764.283128) slcan0 087#0000000000000000
(1547073764.283130) slcan0 086#0000000000000000
(1547073764.283132) slcan0 084#4022D43EC0F1D93E
(1547073764.283134) slcan0 083#0000000000000000
(1547073764.283137) slcan0 082#FE4CE9BC00000000
(1547073764.283140) slcan0 080#545249617C080000
(1547073764.482261) slcan0 081#0000000008000000
(1547073764.482278) slcan0 085#00043F3C00000000
(1547073764.482281) slcan0 087#0000000000000000
(1547073764.482283) slcan0 086#0000000000000000
(1547073764.482285) slcan0 084#0046B43E0027CE3E
(1547073764.482287) slcan0 083#0000000000000000
(1547073764.482289) slcan0 082#7F591EBD00000000
(1547073764.681291) slcan0 081#0000000008000000
(1547073764.681310) slcan0 085#0092383C00000000
(1547073764.681312) slcan0 087#0000000000000000
(1547073764.681314) slcan0 086#0000000000000000
(1547073764.681316) slcan0 084#20D5A53EC015BB3E
(1547073764.681317) slcan0 083#0000000000000000
(1547073764.681319) slcan0 082#FF5614BD00000000
(1547073764.881925) slcan0 081#0000000008000000
(1547073764.881941) slcan0 085#00423D3C00000000
(1547073764.881943) slcan0 087#0000000000000000
(1547073764.881944) slcan0 086#0000000000000000
(1547073764.881946) slcan0 084#0027CE3EA034AD3E
(1547073764.881947) slcan0 083#0000000000000000
(1547073764.883616) slcan0 082#FEDFDDBC00000000
(1547073765.081973) slcan0 081#0000000008000000
(1547073765.081990) slcan0 087#0000000000000000
(1547073765.081991) slcan0 086#0000000000000000
(1547073765.081992) slcan0 085#00223A3C00000000
(1547073765.081993) slcan0 084#20D5A53E0000C83E
(1547073765.081996) slcan0 083#0000000000000000
(1547073765.081997) slcan0 082#FF3800BD00000000
(1547073765.281870) slcan0 081#0000000008000000
(1547073765.281882) slcan0 087#0000000000000000
(1547073765.281883) slcan0 08A#0000000000000000
(1547073765.281885) slcan0 08E#AA8AE3BC00000000
(1547073765.281886) slcan0 08D#AF3B93C1AF3B93C1
(1547073765.281887) slcan0 08C#28E9134250ACDA41
(1547073765.281888) slcan0 08B#65E185435026C441
(1547073765.281889) slcan0 089#EEA99B3FEB022040
(1547073765.281890) slcan0 088#AE1BD33FC8D16B41
(1547073765.281891) slcan0 086#0000000000000000
(1547073765.281892) slcan0 085#00461B3C00000000
(1547073765.281893) slcan0 084#0000FA3E0000963E
(1547073765.281896) slcan0 083#0000000000000000
(1547073765.281897) slcan0 082#FE2C4DBD00000000
(1547073765.281898) slcan0 080#545249617C080000
(1547073765.484071) slcan0 081#0000000008000000
(1547073765.484085) slcan0 085#004E3B3C00000000
(1547073765.484086) slcan0 087#0000000000000000
(1547073765.484087) slcan0 086#0000000000000000
(1547073765.484088) slcan0 084#4022D43EC015BB3E
(1547073765.484089) slcan0 083#0000000000000000
(1547073765.484090) slcan0 082#FFB929BD00000000
(1547073765.683287) slcan0 081#0000000008000000
(1547073765.683301) slcan0 085#00683F3C00000000
(1547073765.683302) slcan0 087#0000000000000000
(1547073765.683303) slcan0 086#0000000000000000
(1547073765.683304) slcan0 084#4022D43EC0F1D93E
(1547073765.683305) slcan0 083#0000000000000000
(1547073765.683306) slcan0 082#7F2C00BD00000000
(1547073765.883454) slcan0 081#0000000008000000
(1547073765.883466) slcan0 085#0025943C00000000
(1547073765.883468) slcan0 087#0000000000000000
(1547073765.883469) slcan0 086#0000000000000000
(1547073765.883470) slcan0 084#8085EA3E201E9E3E
(1547073765.883471) slcan0 083#0000000000000000
(1547073765.883472) slcan0 082#FFB311BC00000000
